
T2698 000:345 SEGGER J-Link V5.10h Log File (0003ms, 0279ms total)
T2698 000:345 DLL Compiled: Jan 21 2016 19:24:29 (0003ms, 0279ms total)
T2698 000:345 Logging started @ 2018-04-02 13:01 (0003ms, 0279ms total)
T2698 000:348 JLINK_SetWarnOutHandler(...) (0001ms, 0280ms total)
T2698 000:349 JLINK_OpenEx(...)
Firmware: J-Link V10 compiled Nov 23 2017 16:40:27
Hardware: V10.10
S/N: 50112013
Feature(s): GDB  returns O.K. (0271ms, 0551ms total)
T2698 000:620 JLINK_SetErrorOutHandler(...) (0000ms, 0551ms total)
T2698 000:620 JLINK_ExecCommand("ProjectFile = "Z:\Software\snickerdoodle-STM32F078-firmware\MDK-ARM\JLinkSettings.ini"", ...)  returns 0x00 (0022ms, 0573ms total)
T2698 000:649 JLINK_ExecCommand("Device = STM32F078VB", ...)Device "STM32F078VB" selected.  returns 0x00 (0010ms, 0583ms total)
T2698 000:659 JLINK_ExecCommand("DisableConnectionTimeout", ...)  returns 0x01 (0000ms, 0583ms total)
T2698 000:659 JLINK_GetHardwareVersion()  returns 0x18A88 (0000ms, 0583ms total)
T2698 000:660 JLINK_GetDLLVersion()  returns 51008 (0000ms, 0584ms total)
T2698 000:660 JLINK_GetFirmwareString(...) (0000ms, 0584ms total)
T2698 000:676 JLINK_GetDLLVersion()  returns 51008 (0000ms, 0584ms total)
T2698 000:676 JLINK_GetCompileDateTime() (0000ms, 0584ms total)
T2698 000:681 JLINK_GetFirmwareString(...) (0000ms, 0584ms total)
T2698 000:688 JLINK_GetHardwareVersion()  returns 0x18A88 (0000ms, 0585ms total)
T2698 000:711 JLINK_TIF_Select(JLINKARM_TIF_SWD)  returns 0x00 (0002ms, 0587ms total)
T2698 000:713 JLINK_SetSpeed(5000) (0000ms, 0587ms total)
T2698 000:713 JLINK_GetId() >0x108 TIF>Found SWD-DP with ID 0x0BB11477 >0x0D TIF> >0x28 TIF> >0x0D TIF> >0x28 TIF> >0x0D TIF> >0x28 TIF> >0x0D TIF> >0x28 TIF> >0x0D TIF> >0x21 TIF> >0x0D TIF> >0x28 TIF> >0x0D TIF> >0x28 TIF> >0x0D TIF> >0x28 TIF> >0x0D TIF> >0x21 TIF> >0x0D TIF> >0x21 TIF> >0x0D TIF> >0x28 TIF> >0x0D TIF> >0x21 TIF> >0x0D TIF> >0x21 TIF> >0x0D TIF> >0x28 TIF> >0x0D TIF> >0x21 TIF> >0x0D TIF> >0x21 TIF> >0x0D TIF> >0x28 TIF> >0x0D TIF> >0x28 TIF> >0x0D TIF> >0x28 TIF> >0x0D TIF>
 >0x21 TIF> >0x0D TIF> >0x21 TIF> >0x0D TIF> >0x28 TIF> >0x0D TIF> >0x28 TIF> >0x0D TIF> >0x28 TIF> >0x0D TIF> >0x21 TIF> >0x0D TIF> >0x21 TIF> >0x0D TIF> >0x28 TIF> >0x0D TIF> >0x28 TIF> >0x0D TIF> >0x28 TIF> >0x0D TIF> >0x21 TIF> >0x0D TIF> >0x21 TIF> >0x0D TIF> >0x28 TIF> >0x0D TIF> >0x21 TIF> >0x0D TIF> >0x21 TIF> >0x108 TIF>Found SWD-DP with ID 0x0BB11477 >0x0D TIF> >0x28 TIF> >0x0D TIF> >0x28 TIF> >0x0D TIF> >0x28 TIF> >0x0D TIF> >0x28 TIF> >0x0D TIF> >0x21 TIF> >0x0D TIF> >0x28 TIF> >0x0D TIF>
 >0x28 TIF> >0x0D TIF> >0x21 TIF> >0x0D TIF> >0x21 TIF> >0x0D TIF> >0x21 TIF> >0x0D TIF> >0x28 TIF> >0x0D TIF> >0x28 TIF> >0x0D TIF> >0x28 TIF> >0x0D TIF> >0x21 TIF> >0x0D TIF> >0x21 TIF> >0x0D TIF> >0x28 TIF> >0x0D TIF> >0x21 TIF> >0x0D TIF> >0x21 TIF>Found Cortex-M0 r0p0, Little endian. -- CPU_ReadMem(4 bytes @ 0xE000EDF0) -- CPU_WriteMem(4 bytes @ 0xE000EDF0) -- CPU_ReadMem(4 bytes @ 0xE0002000)FPUnit: 4 code (BP) slots and 0 literal slots -- CPU_ReadMem(4 bytes @ 0xE000EDFC)
 -- CPU_WriteMem(4 bytes @ 0xE000EDFC) -- CPU_ReadMem(4 bytes @ 0xE0001000) -- CPU_WriteMem(4 bytes @ 0xE0001000)CoreSight components:ROMTbl 0 @ E00FF000 -- CPU_ReadMem(16 bytes @ 0xE00FF000) -- CPU_ReadMem(16 bytes @ 0xE000EFF0) -- CPU_ReadMem(16 bytes @ 0xE000EFE0)ROMTbl 0 [0]: FFF0F000, CID: B105E00D, PID: 000BB008 SCS -- CPU_ReadMem(16 bytes @ 0xE0001FF0) -- CPU_ReadMem(16 bytes @ 0xE0001FE0)ROMTbl 0 [1]: FFF02000, CID: B105E00D, PID: 000BB00A DWT -- CPU_ReadMem(16 bytes @ 0xE0002FF0)
 -- CPU_ReadMem(16 bytes @ 0xE0002FE0)ROMTbl 0 [2]: FFF03000, CID: B105E00D, PID: 000BB00B FPB -- CPU_WriteMem(16384 bytes @ 0x20000000) -- CPU_ReadMem(4 bytes @ 0xE0001000) -- CPU_WriteMem(4 bytes @ 0xE0001000) >0x0D TIF> >0x21 TIF>  returns 0x0BB11477 (0161ms, 0748ms total)
T2698 000:875 JLINK_GetDLLVersion()  returns 51008 (0000ms, 0748ms total)
T2698 000:875 JLINK_CORE_GetFound()  returns 0x60000FF (0000ms, 0748ms total)
T2698 000:875 JLINK_GetDebugInfo(0x100) -- Value=0xE00FF000  returns 0x00 (0000ms, 0748ms total)
T2698 000:881 JLINK_GetDebugInfo(0x100) -- Value=0xE00FF000  returns 0x00 (0001ms, 0749ms total)
T2698 000:882 JLINK_GetDebugInfo(0x101) -- Value=0x00000000  returns 0x00 (0000ms, 0749ms total)
T2698 000:882 JLINK_ReadMem (0xE0041FF0, 0x0010 Bytes, ...) -- CPU is running -- CPU_ReadMem(16 bytes @ 0xE0041FF0) - Data: 00 00 00 00 00 00 00 00 00 00 00 00 00 00 00 00  returns 0x00 (0001ms, 0750ms total)
T2698 000:883 JLINK_GetDebugInfo(0x102) -- Value=0x00000000  returns 0x00 (0000ms, 0750ms total)
T2698 000:883 JLINK_GetDebugInfo(0x103) -- Value=0x00000000  returns 0x00 (0001ms, 0751ms total)
T2698 000:884 JLINK_ReadMem (0xE0040FF0, 0x0010 Bytes, ...) -- CPU is running -- CPU_ReadMem(16 bytes @ 0xE0040FF0) - Data: 00 00 00 00 00 00 00 00 00 00 00 00 00 00 00 00  returns 0x00 (0000ms, 0751ms total)
T2698 000:885 JLINK_GetDebugInfo(0x104) -- Value=0xE0000000  returns 0x00 (0000ms, 0752ms total)
T2698 000:885 JLINK_GetDebugInfo(0x105) -- Value=0xE0001000  returns 0x00 (0000ms, 0752ms total)
T2698 000:885 JLINK_GetDebugInfo(0x106) -- Value=0xE0002000  returns 0x00 (0000ms, 0752ms total)
T2698 000:885 JLINK_GetDebugInfo(0x107) -- Value=0xE000E000  returns 0x00 (0001ms, 0753ms total)
T2698 000:886 JLINK_GetDebugInfo(0x10C) -- Value=0xE000EDF0  returns 0x00 (0000ms, 0753ms total)
T2698 000:886 JLINK_ReadMemU32(0xE000ED00, 0x0001 Items, ...) -- CPU is running -- CPU_ReadMem(4 bytes @ 0xE000ED00) - Data: 00 C2 0C 41  returns 0x01 (0001ms, 0754ms total)
T2698 000:887 JLINK_SetResetType(JLINKARM_RESET_TYPE_NORMAL)  returns JLINKARM_RESET_TYPE_NORMAL (0000ms, 0754ms total)
T2698 000:887 JLINK_Reset() -- CPU_ReadMem(4 bytes @ 0x20000000) -- CPU_WriteMem(4 bytes @ 0x20000000) -- CPU is running -- CPU_WriteMem(4 bytes @ 0xE000EDF0) -- CPU is running -- CPU_WriteMem(4 bytes @ 0xE000EDFC) >0x35 TIF> -- CPU is running -- CPU_WriteMem(4 bytes @ 0xE000ED0C) -- CPU is running -- CPU_ReadMem(4 bytes @ 0xE000EDF0) -- CPU is running -- CPU_ReadMem(4 bytes @ 0xE000EDF0) -- CPU is running -- CPU_WriteMem(4 bytes @ 0xE000EDF0) -- CPU is running -- CPU_WriteMem(4 bytes @ 0xE000EDFC)
 -- CPU is running -- CPU_ReadMem(4 bytes @ 0xE000EDF0) -- CPU_WriteMem(4 bytes @ 0xE0002000) -- CPU_ReadMem(4 bytes @ 0xE000EDFC) -- CPU_ReadMem(4 bytes @ 0xE0001000) -- CPU_WriteMem(4 bytes @ 0xE0001000) (0022ms, 0776ms total)
T2698 000:909 JLINK_Halt()  returns 0x00 (0001ms, 0777ms total)
T2698 000:910 JLINK_IsHalted()  returns TRUE (0000ms, 0777ms total)
T2698 000:910 JLINK_ReadMemU32(0xE000EDF0, 0x0001 Items, ...) -- CPU_ReadMem(4 bytes @ 0xE000EDF0) - Data: 03 00 03 00  returns 0x01 (0001ms, 0778ms total)
T2698 000:911 JLINK_WriteU32(0xE000EDF0, 0xA05F0003) -- CPU_WriteMem(4 bytes @ 0xE000EDF0)  returns 0x00 (0001ms, 0779ms total)
T2698 000:912 JLINK_WriteU32(0xE000EDFC, 0x01000000) -- CPU_WriteMem(4 bytes @ 0xE000EDFC)  returns 0x00 (0001ms, 0780ms total)
T2698 000:937 JLINK_GetHWStatus(...)  returns 0x00 (0000ms, 0780ms total)
T2698 000:956 JLINK_GetNumBPUnits(Type = 0xFFFFFF00)  returns 0x04 (0000ms, 0781ms total)
T2698 000:956 JLINK_GetNumBPUnits(Type = 0xF0)  returns 0x2000 (0000ms, 0781ms total)
T2698 000:956 JLINK_GetNumWPUnits()  returns 0x02 (0001ms, 0782ms total)
T2698 000:975 JLINK_GetSpeed()  returns 0x1388 (0000ms, 0782ms total)
T2698 000:985 JLINK_ReadMemU32(0xE000E004, 0x0001 Items, ...) -- CPU_ReadMem(4 bytes @ 0xE000E004) - Data: 00 00 00 00  returns 0x01 (0001ms, 0783ms total)
T2698 000:986 JLINK_Halt()  returns 0x00 (0000ms, 0783ms total)
T2698 000:987 JLINK_IsHalted()  returns TRUE (0000ms, 0784ms total)
T2698 000:997 JLINK_WriteMem(0x20000000, 0x0170 Bytes, ...) - Data: 00 BE 0A E0 0D 78 2D 06 68 40 08 24 40 00 00 D3 ... -- CPU_WriteMem(368 bytes @ 0x20000000)  returns 0x170 (0002ms, 0786ms total)
T2698 000:999 JLINK_WriteReg(R0, 0x08000000)  returns 0x00 (0000ms, 0786ms total)
T2698 001:000 JLINK_WriteReg(R1, 0x02DC6C00)  returns 0x00 (0000ms, 0787ms total)
T2698 001:000 JLINK_WriteReg(R2, 0x00000001)  returns 0x00 (0000ms, 0787ms total)
T2698 001:000 JLINK_WriteReg(R3, 0x00000000)  returns 0x00 (0000ms, 0787ms total)
T2698 001:000 JLINK_WriteReg(R4, 0x00000000)  returns 0x00 (0000ms, 0787ms total)
T2698 001:000 JLINK_WriteReg(R5, 0x00000000)  returns 0x00 (0001ms, 0788ms total)
T2698 001:001 JLINK_WriteReg(R6, 0x00000000)  returns 0x00 (0000ms, 0788ms total)
T2698 001:001 JLINK_WriteReg(R7, 0x00000000)  returns 0x00 (0000ms, 0788ms total)
T2698 001:001 JLINK_WriteReg(R8, 0x00000000)  returns 0x00 (0000ms, 0788ms total)
T2698 001:001 JLINK_WriteReg(R9, 0x2000016C)  returns 0x00 (0001ms, 0789ms total)
T2698 001:002 JLINK_WriteReg(R10, 0x00000000)  returns 0x00 (0000ms, 0789ms total)
T2698 001:002 JLINK_WriteReg(R11, 0x00000000)  returns 0x00 (0000ms, 0789ms total)
T2698 001:002 JLINK_WriteReg(R12, 0x00000000)  returns 0x00 (0000ms, 0789ms total)
T2698 001:002 JLINK_WriteReg(R13 (SP), 0x20001000)  returns 0x00 (0001ms, 0790ms total)
T2698 001:003 JLINK_WriteReg(R14, 0x20000001)  returns 0x00 (0000ms, 0790ms total)
T2698 001:003 JLINK_WriteReg(R15 (PC), 0x20000038)  returns 0x00 (0000ms, 0790ms total)
T2698 001:003 JLINK_WriteReg(XPSR, 0x01000000)  returns 0x00 (0000ms, 0790ms total)
T2698 001:003 JLINK_WriteReg(MSP, 0x20001000)  returns 0x00 (0000ms, 0790ms total)
T2698 001:004 JLINK_WriteReg(PSP, 0x20001000)  returns 0x00 (0000ms, 0791ms total)
T2698 001:004 JLINK_WriteReg(CFBP, 0x00000000)  returns 0x00 (0000ms, 0791ms total)
T2698 001:004 JLINK_SetBPEx(Addr = 0x20000000, Type = 0xFFFFFFF2) -- CPU_ReadMem(2 bytes @ 0x20000000)  returns 0x00000001 (0001ms, 0792ms total)
T2698 001:005 JLINK_Go() -- CPU_WriteMem(2 bytes @ 0x20000000) -- CPU_ReadMem(4 bytes @ 0xE0001000) -- CPU_WriteMem(4 bytes @ 0xE0001000) -- CPU_WriteMem(4 bytes @ 0xE0002008) -- CPU_WriteMem(4 bytes @ 0xE000200C) -- CPU_WriteMem(4 bytes @ 0xE0002010) -- CPU_WriteMem(4 bytes @ 0xE0002014) -- CPU_WriteMem(4 bytes @ 0xE0001004) (0005ms, 0797ms total)
T2698 001:010 JLINK_IsHalted() -- CPU_ReadMem(2 bytes @ 0x20000000)  returns TRUE (0003ms, 0800ms total)
T2698 001:013 JLINK_ReadReg(R15 (PC))  returns 0x20000000 (0000ms, 0797ms total)
T2698 001:013 JLINK_ClrBPEx(BPHandle = 0x00000001)  returns 0x00 (0000ms, 0797ms total)
T2698 001:013 JLINK_ReadReg(R0)  returns 0x00000000 (0000ms, 0797ms total)
T2698 001:014 JLINK_WriteReg(R0, 0x08000000)  returns 0x00 (0000ms, 0797ms total)
T2698 001:015 JLINK_WriteReg(R1, 0x02DC6C00)  returns 0x00 (0000ms, 0798ms total)
T2698 001:015 JLINK_WriteReg(R2, 0x00000001)  returns 0x00 (0000ms, 0798ms total)
T2698 001:015 JLINK_WriteReg(R3, 0x00000000)  returns 0x00 (0000ms, 0798ms total)
T2698 001:015 JLINK_WriteReg(R4, 0x00000000)  returns 0x00 (0000ms, 0798ms total)
T2698 001:015 JLINK_WriteReg(R5, 0x00000000)  returns 0x00 (0001ms, 0799ms total)
T2698 001:016 JLINK_WriteReg(R6, 0x00000000)  returns 0x00 (0000ms, 0799ms total)
T2698 001:016 JLINK_WriteReg(R7, 0x00000000)  returns 0x00 (0000ms, 0799ms total)
T2698 001:016 JLINK_WriteReg(R8, 0x00000000)  returns 0x00 (0000ms, 0799ms total)
T2698 001:016 JLINK_WriteReg(R9, 0x2000016C)  returns 0x00 (0001ms, 0800ms total)
T2698 001:017 JLINK_WriteReg(R10, 0x00000000)  returns 0x00 (0000ms, 0800ms total)
T2698 001:017 JLINK_WriteReg(R11, 0x00000000)  returns 0x00 (0000ms, 0800ms total)
T2698 001:017 JLINK_WriteReg(R12, 0x00000000)  returns 0x00 (0000ms, 0800ms total)
T2698 001:017 JLINK_WriteReg(R13 (SP), 0x20001000)  returns 0x00 (0000ms, 0800ms total)
T2698 001:018 JLINK_WriteReg(R14, 0x20000001)  returns 0x00 (0000ms, 0801ms total)
T2698 001:018 JLINK_WriteReg(R15 (PC), 0x20000074)  returns 0x00 (0000ms, 0801ms total)
T2698 001:018 JLINK_WriteReg(XPSR, 0x01000000)  returns 0x00 (0000ms, 0801ms total)
T2698 001:018 JLINK_WriteReg(MSP, 0x20001000)  returns 0x00 (0000ms, 0801ms total)
T2698 001:018 JLINK_WriteReg(PSP, 0x20001000)  returns 0x00 (0001ms, 0802ms total)
T2698 001:019 JLINK_WriteReg(CFBP, 0x00000000)  returns 0x00 (0000ms, 0802ms total)
T2698 001:019 JLINK_SetBPEx(Addr = 0x20000000, Type = 0xFFFFFFF2)  returns 0x00000002 (0000ms, 0802ms total)
T2698 001:019 JLINK_Go() -- CPU_ReadMem(4 bytes @ 0xE0001000) -- CPU_WriteMem(4 bytes @ 0xE0001000) (0003ms, 0805ms total)
T2698 001:022 JLINK_IsHalted()  returns FALSE (0001ms, 0806ms total)
T2698 001:054 JLINK_IsHalted() -- CPU_ReadMem(2 bytes @ 0x20000000)  returns TRUE (0003ms, 0808ms total)
T2698 001:057 JLINK_ReadReg(R15 (PC))  returns 0x20000000 (0000ms, 0805ms total)
T2698 001:057 JLINK_ClrBPEx(BPHandle = 0x00000002)  returns 0x00 (0001ms, 0806ms total)
T2698 001:058 JLINK_ReadReg(R0)  returns 0x00000000 (0000ms, 0806ms total)
T2698 001:114 JLINK_WriteReg(R0, 0x00000001)  returns 0x00 (0000ms, 0806ms total)
T2698 001:115 JLINK_WriteReg(R1, 0x02DC6C00)  returns 0x00 (0000ms, 0807ms total)
T2698 001:115 JLINK_WriteReg(R2, 0x00000001)  returns 0x00 (0000ms, 0807ms total)
T2698 001:115 JLINK_WriteReg(R3, 0x00000000)  returns 0x00 (0000ms, 0807ms total)
T2698 001:115 JLINK_WriteReg(R4, 0x00000000)  returns 0x00 (0001ms, 0808ms total)
T2698 001:116 JLINK_WriteReg(R5, 0x00000000)  returns 0x00 (0000ms, 0808ms total)
T2698 001:116 JLINK_WriteReg(R6, 0x00000000)  returns 0x00 (0000ms, 0808ms total)
T2698 001:116 JLINK_WriteReg(R7, 0x00000000)  returns 0x00 (0000ms, 0808ms total)
T2698 001:116 JLINK_WriteReg(R8, 0x00000000)  returns 0x00 (0001ms, 0809ms total)
T2698 001:117 JLINK_WriteReg(R9, 0x2000016C)  returns 0x00 (0000ms, 0809ms total)
T2698 001:117 JLINK_WriteReg(R10, 0x00000000)  returns 0x00 (0000ms, 0809ms total)
T2698 001:117 JLINK_WriteReg(R11, 0x00000000)  returns 0x00 (0001ms, 0810ms total)
T2698 001:118 JLINK_WriteReg(R12, 0x00000000)  returns 0x00 (0000ms, 0810ms total)
T2698 001:118 JLINK_WriteReg(R13 (SP), 0x20001000)  returns 0x00 (0000ms, 0810ms total)
T2698 001:118 JLINK_WriteReg(R14, 0x20000001)  returns 0x00 (0000ms, 0810ms total)
T2698 001:118 JLINK_WriteReg(R15 (PC), 0x20000066)  returns 0x00 (0001ms, 0811ms total)
T2698 001:119 JLINK_WriteReg(XPSR, 0x01000000)  returns 0x00 (0000ms, 0811ms total)
T2698 001:119 JLINK_WriteReg(MSP, 0x20001000)  returns 0x00 (0000ms, 0811ms total)
T2698 001:119 JLINK_WriteReg(PSP, 0x20001000)  returns 0x00 (0001ms, 0812ms total)
T2698 001:120 JLINK_WriteReg(CFBP, 0x00000000)  returns 0x00 (0000ms, 0812ms total)
T2698 001:120 JLINK_SetBPEx(Addr = 0x20000000, Type = 0xFFFFFFF2)  returns 0x00000003 (0000ms, 0812ms total)
T2698 001:120 JLINK_Go() -- CPU_ReadMem(4 bytes @ 0xE0001000) -- CPU_WriteMem(4 bytes @ 0xE0001000) (0003ms, 0815ms total)
T2698 001:123 JLINK_IsHalted() -- CPU_ReadMem(2 bytes @ 0x20000000)  returns TRUE (0003ms, 0818ms total)
T2698 001:126 JLINK_ReadReg(R15 (PC))  returns 0x20000000 (0000ms, 0815ms total)
T2698 001:126 JLINK_ClrBPEx(BPHandle = 0x00000003)  returns 0x00 (0000ms, 0815ms total)
T2698 001:126 JLINK_ReadReg(R0)  returns 0x00000000 (0001ms, 0816ms total)
T2698 001:133 JLINK_WriteMem(0x20000000, 0x0190 Bytes, ...) - Data: 00 BE 0A E0 0D 78 2D 06 68 40 08 24 40 00 00 D3 ... -- CPU_WriteMem(400 bytes @ 0x20000000)  returns 0x190 (0002ms, 0818ms total)
T2698 001:135 JLINK_WriteReg(R0, 0x1FFFF800)  returns 0x00 (0001ms, 0819ms total)
T2698 001:136 JLINK_WriteReg(R1, 0x02DC6C00)  returns 0x00 (0000ms, 0819ms total)
T2698 001:136 JLINK_WriteReg(R2, 0x00000001)  returns 0x00 (0000ms, 0819ms total)
T2698 001:136 JLINK_WriteReg(R3, 0x00000000)  returns 0x00 (0000ms, 0819ms total)
T2698 001:136 JLINK_WriteReg(R4, 0x00000000)  returns 0x00 (0001ms, 0820ms total)
T2698 001:137 JLINK_WriteReg(R5, 0x00000000)  returns 0x00 (0000ms, 0820ms total)
T2698 001:137 JLINK_WriteReg(R6, 0x00000000)  returns 0x00 (0000ms, 0820ms total)
T2698 001:137 JLINK_WriteReg(R7, 0x00000000)  returns 0x00 (0000ms, 0820ms total)
T2698 001:137 JLINK_WriteReg(R8, 0x00000000)  returns 0x00 (0000ms, 0820ms total)
T2698 001:138 JLINK_WriteReg(R9, 0x2000018C)  returns 0x00 (0000ms, 0821ms total)
T2698 001:138 JLINK_WriteReg(R10, 0x00000000)  returns 0x00 (0000ms, 0821ms total)
T2698 001:138 JLINK_WriteReg(R11, 0x00000000)  returns 0x00 (0000ms, 0821ms total)
T2698 001:138 JLINK_WriteReg(R12, 0x00000000)  returns 0x00 (0000ms, 0821ms total)
T2698 001:138 JLINK_WriteReg(R13 (SP), 0x20001000)  returns 0x00 (0001ms, 0822ms total)
T2698 001:139 JLINK_WriteReg(R14, 0x20000001)  returns 0x00 (0000ms, 0822ms total)
T2698 001:139 JLINK_WriteReg(R15 (PC), 0x20000020)  returns 0x00 (0000ms, 0822ms total)
T2698 001:139 JLINK_WriteReg(XPSR, 0x01000000)  returns 0x00 (0000ms, 0822ms total)
T2698 001:139 JLINK_WriteReg(MSP, 0x20001000)  returns 0x00 (0001ms, 0823ms total)
T2698 001:140 JLINK_WriteReg(PSP, 0x20001000)  returns 0x00 (0000ms, 0823ms total)
T2698 001:140 JLINK_WriteReg(CFBP, 0x00000000)  returns 0x00 (0000ms, 0823ms total)
T2698 001:140 JLINK_SetBPEx(Addr = 0x20000000, Type = 0xFFFFFFF2) -- CPU_ReadMem(2 bytes @ 0x20000000)  returns 0x00000004 (0001ms, 0824ms total)
T2698 001:141 JLINK_Go() -- CPU_WriteMem(2 bytes @ 0x20000000) -- CPU_ReadMem(4 bytes @ 0xE0001000) -- CPU_WriteMem(4 bytes @ 0xE0001000) (0003ms, 0827ms total)
T2698 001:144 JLINK_IsHalted() -- CPU_ReadMem(2 bytes @ 0x20000000)  returns TRUE (0003ms, 0830ms total)
T2698 001:147 JLINK_ReadReg(R15 (PC))  returns 0x20000000 (0000ms, 0827ms total)
T2698 001:148 JLINK_ClrBPEx(BPHandle = 0x00000004)  returns 0x00 (0000ms, 0828ms total)
T2698 001:148 JLINK_ReadReg(R0)  returns 0x00000000 (0000ms, 0828ms total)
T2698 001:149 JLINK_WriteReg(R0, 0x1FFFF800)  returns 0x00 (0000ms, 0828ms total)
T2698 001:149 JLINK_WriteReg(R1, 0x02DC6C00)  returns 0x00 (0000ms, 0828ms total)
T2698 001:149 JLINK_WriteReg(R2, 0x00000001)  returns 0x00 (0000ms, 0828ms total)
T2698 001:149 JLINK_WriteReg(R3, 0x00000000)  returns 0x00 (0000ms, 0828ms total)
T2698 001:149 JLINK_WriteReg(R4, 0x00000000)  returns 0x00 (0001ms, 0829ms total)
T2698 001:150 JLINK_WriteReg(R5, 0x00000000)  returns 0x00 (0000ms, 0829ms total)
T2698 001:150 JLINK_WriteReg(R6, 0x00000000)  returns 0x00 (0000ms, 0829ms total)
T2698 001:150 JLINK_WriteReg(R7, 0x00000000)  returns 0x00 (0000ms, 0829ms total)
T2698 001:150 JLINK_WriteReg(R8, 0x00000000)  returns 0x00 (0000ms, 0829ms total)
T2698 001:151 JLINK_WriteReg(R9, 0x2000018C)  returns 0x00 (0000ms, 0830ms total)
T2698 001:151 JLINK_WriteReg(R10, 0x00000000)  returns 0x00 (0000ms, 0830ms total)
T2698 001:151 JLINK_WriteReg(R11, 0x00000000)  returns 0x00 (0001ms, 0831ms total)
T2698 001:152 JLINK_WriteReg(R12, 0x00000000)  returns 0x00 (0000ms, 0831ms total)
T2698 001:152 JLINK_WriteReg(R13 (SP), 0x20001000)  returns 0x00 (0000ms, 0831ms total)
T2698 001:152 JLINK_WriteReg(R14, 0x20000001)  returns 0x00 (0000ms, 0831ms total)
T2698 001:152 JLINK_WriteReg(R15 (PC), 0x20000068)  returns 0x00 (0001ms, 0832ms total)
T2698 001:153 JLINK_WriteReg(XPSR, 0x01000000)  returns 0x00 (0000ms, 0832ms total)
T2698 001:153 JLINK_WriteReg(MSP, 0x20001000)  returns 0x00 (0000ms, 0832ms total)
T2698 001:153 JLINK_WriteReg(PSP, 0x20001000)  returns 0x00 (0000ms, 0832ms total)
T2698 001:153 JLINK_WriteReg(CFBP, 0x00000000)  returns 0x00 (0000ms, 0832ms total)
T2698 001:154 JLINK_SetBPEx(Addr = 0x20000000, Type = 0xFFFFFFF2)  returns 0x00000005 (0000ms, 0833ms total)
T2698 001:154 JLINK_Go() -- CPU_ReadMem(4 bytes @ 0xE0001000) -- CPU_WriteMem(4 bytes @ 0xE0001000) (0002ms, 0835ms total)
T2698 001:156 JLINK_IsHalted()  returns FALSE (0001ms, 0836ms total)
T2698 001:164 JLINK_IsHalted()  returns FALSE (0001ms, 0836ms total)
T2698 001:166 JLINK_IsHalted()  returns FALSE (0000ms, 0835ms total)
T2698 001:168 JLINK_IsHalted()  returns FALSE (0000ms, 0835ms total)
T2698 001:170 JLINK_IsHalted()  returns FALSE (0000ms, 0835ms total)
T2698 001:173 JLINK_IsHalted()  returns FALSE (0001ms, 0836ms total)
T2698 001:176 JLINK_IsHalted()  returns FALSE (0000ms, 0835ms total)
T2698 001:178 JLINK_IsHalted()  returns FALSE (0000ms, 0835ms total)
T2698 001:180 JLINK_IsHalted() -- CPU_ReadMem(2 bytes @ 0x20000000)  returns TRUE (0003ms, 0838ms total)
T2698 001:183 JLINK_ReadReg(R15 (PC))  returns 0x20000000 (0000ms, 0835ms total)
T2698 001:183 JLINK_ClrBPEx(BPHandle = 0x00000005)  returns 0x00 (0001ms, 0836ms total)
T2698 001:184 JLINK_ReadReg(R0)  returns 0x00000000 (0000ms, 0836ms total)
T2698 001:236 JLINK_WriteReg(R0, 0x00000001)  returns 0x00 (0001ms, 0837ms total)
T2698 001:237 JLINK_WriteReg(R1, 0x02DC6C00)  returns 0x00 (0000ms, 0837ms total)
T2698 001:237 JLINK_WriteReg(R2, 0x00000001)  returns 0x00 (0000ms, 0837ms total)
T2698 001:237 JLINK_WriteReg(R3, 0x00000000)  returns 0x00 (0000ms, 0837ms total)
T2698 001:237 JLINK_WriteReg(R4, 0x00000000)  returns 0x00 (0001ms, 0838ms total)
T2698 001:238 JLINK_WriteReg(R5, 0x00000000)  returns 0x00 (0000ms, 0838ms total)
T2698 001:238 JLINK_WriteReg(R6, 0x00000000)  returns 0x00 (0000ms, 0838ms total)
T2698 001:239 JLINK_WriteReg(R7, 0x00000000)  returns 0x00 (0000ms, 0839ms total)
T2698 001:239 JLINK_WriteReg(R8, 0x00000000)  returns 0x00 (0000ms, 0839ms total)
T2698 001:239 JLINK_WriteReg(R9, 0x2000018C)  returns 0x00 (0000ms, 0839ms total)
T2698 001:239 JLINK_WriteReg(R10, 0x00000000)  returns 0x00 (0001ms, 0840ms total)
T2698 001:240 JLINK_WriteReg(R11, 0x00000000)  returns 0x00 (0000ms, 0840ms total)
T2698 001:240 JLINK_WriteReg(R12, 0x00000000)  returns 0x00 (0000ms, 0840ms total)
T2698 001:240 JLINK_WriteReg(R13 (SP), 0x20001000)  returns 0x00 (0000ms, 0840ms total)
T2698 001:240 JLINK_WriteReg(R14, 0x20000001)  returns 0x00 (0001ms, 0841ms total)
T2698 001:241 JLINK_WriteReg(R15 (PC), 0x20000052)  returns 0x00 (0000ms, 0841ms total)
T2698 001:241 JLINK_WriteReg(XPSR, 0x01000000)  returns 0x00 (0000ms, 0841ms total)
T2698 001:241 JLINK_WriteReg(MSP, 0x20001000)  returns 0x00 (0001ms, 0842ms total)
T2698 001:242 JLINK_WriteReg(PSP, 0x20001000)  returns 0x00 (0000ms, 0842ms total)
T2698 001:242 JLINK_WriteReg(CFBP, 0x00000000)  returns 0x00 (0000ms, 0842ms total)
T2698 001:242 JLINK_SetBPEx(Addr = 0x20000000, Type = 0xFFFFFFF2)  returns 0x00000006 (0000ms, 0842ms total)
T2698 001:242 JLINK_Go() -- CPU_ReadMem(4 bytes @ 0xE0001000) -- CPU_WriteMem(4 bytes @ 0xE0001000) (0003ms, 0845ms total)
T2698 001:246 JLINK_IsHalted() -- CPU_ReadMem(2 bytes @ 0x20000000)  returns TRUE (0002ms, 0848ms total)
T2698 001:249 JLINK_ReadReg(R15 (PC))  returns 0x20000000 (0000ms, 0846ms total)
T2698 001:249 JLINK_ClrBPEx(BPHandle = 0x00000006)  returns 0x00 (0000ms, 0846ms total)
T2698 001:249 JLINK_ReadReg(R0)  returns 0x00000000 (0000ms, 0846ms total)
T2698 001:256 JLINK_WriteMem(0x20000000, 0x0170 Bytes, ...) - Data: 00 BE 0A E0 0D 78 2D 06 68 40 08 24 40 00 00 D3 ... -- CPU_WriteMem(368 bytes @ 0x20000000)  returns 0x170 (0002ms, 0848ms total)
T2698 001:258 JLINK_WriteReg(R0, 0x08000000)  returns 0x00 (0001ms, 0849ms total)
T2698 001:259 JLINK_WriteReg(R1, 0x02DC6C00)  returns 0x00 (0000ms, 0849ms total)
T2698 001:259 JLINK_WriteReg(R2, 0x00000002)  returns 0x00 (0000ms, 0849ms total)
T2698 001:259 JLINK_WriteReg(R3, 0x00000000)  returns 0x00 (0001ms, 0850ms total)
T2698 001:260 JLINK_WriteReg(R4, 0x00000000)  returns 0x00 (0000ms, 0850ms total)
T2698 001:260 JLINK_WriteReg(R5, 0x00000000)  returns 0x00 (0000ms, 0850ms total)
T2698 001:260 JLINK_WriteReg(R6, 0x00000000)  returns 0x00 (0000ms, 0850ms total)
T2698 001:260 JLINK_WriteReg(R7, 0x00000000)  returns 0x00 (0001ms, 0851ms total)
T2698 001:261 JLINK_WriteReg(R8, 0x00000000)  returns 0x00 (0000ms, 0851ms total)
T2698 001:261 JLINK_WriteReg(R9, 0x2000016C)  returns 0x00 (0000ms, 0851ms total)
T2698 001:261 JLINK_WriteReg(R10, 0x00000000)  returns 0x00 (0000ms, 0851ms total)
T2698 001:261 JLINK_WriteReg(R11, 0x00000000)  returns 0x00 (0001ms, 0852ms total)
T2698 001:262 JLINK_WriteReg(R12, 0x00000000)  returns 0x00 (0000ms, 0852ms total)
T2698 001:262 JLINK_WriteReg(R13 (SP), 0x20001000)  returns 0x00 (0000ms, 0852ms total)
T2698 001:262 JLINK_WriteReg(R14, 0x20000001)  returns 0x00 (0000ms, 0852ms total)
T2698 001:262 JLINK_WriteReg(R15 (PC), 0x20000038)  returns 0x00 (0001ms, 0853ms total)
T2698 001:263 JLINK_WriteReg(XPSR, 0x01000000)  returns 0x00 (0000ms, 0853ms total)
T2698 001:263 JLINK_WriteReg(MSP, 0x20001000)  returns 0x00 (0000ms, 0853ms total)
T2698 001:263 JLINK_WriteReg(PSP, 0x20001000)  returns 0x00 (0000ms, 0853ms total)
T2698 001:263 JLINK_WriteReg(CFBP, 0x00000000)  returns 0x00 (0001ms, 0854ms total)
T2698 001:264 JLINK_SetBPEx(Addr = 0x20000000, Type = 0xFFFFFFF2) -- CPU_ReadMem(2 bytes @ 0x20000000)  returns 0x00000007 (0001ms, 0855ms total)
T2698 001:265 JLINK_Go() -- CPU_WriteMem(2 bytes @ 0x20000000) -- CPU_ReadMem(4 bytes @ 0xE0001000) -- CPU_WriteMem(4 bytes @ 0xE0001000) (0003ms, 0858ms total)
T2698 001:268 JLINK_IsHalted() -- CPU_ReadMem(2 bytes @ 0x20000000)  returns TRUE (0002ms, 0860ms total)
T2698 001:271 JLINK_ReadReg(R15 (PC))  returns 0x20000000 (0000ms, 0858ms total)
T2698 001:271 JLINK_ClrBPEx(BPHandle = 0x00000007)  returns 0x00 (0000ms, 0858ms total)
T2698 001:271 JLINK_ReadReg(R0)  returns 0x00000000 (0000ms, 0858ms total)
T2698 001:272 JLINK_WriteMem(0x20000170, 0x0290 Bytes, ...) - Data: 30 33 00 20 D5 00 00 08 DD 00 00 08 DF 00 00 08 ... -- CPU_WriteMem(656 bytes @ 0x20000170)  returns 0x290 (0003ms, 0861ms total)
T2698 001:275 JLINK_WriteMem(0x20000400, 0x0170 Bytes, ...) - Data: EB F8 10 BD F8 B5 05 46 04 46 40 35 28 78 00 26 ... -- CPU_WriteMem(368 bytes @ 0x20000400)  returns 0x170 (0002ms, 0863ms total)
T2698 001:277 JLINK_WriteReg(R0, 0x08000000)  returns 0x00 (0000ms, 0863ms total)
T2698 001:277 JLINK_WriteReg(R1, 0x00000400)  returns 0x00 (0001ms, 0864ms total)
T2698 001:278 JLINK_WriteReg(R2, 0x20000170)  returns 0x00 (0000ms, 0864ms total)
T2698 001:278 JLINK_WriteReg(R3, 0x00000000)  returns 0x00 (0000ms, 0864ms total)
T2698 001:278 JLINK_WriteReg(R4, 0x00000000)  returns 0x00 (0000ms, 0864ms total)
T2698 001:278 JLINK_WriteReg(R5, 0x00000000)  returns 0x00 (0001ms, 0865ms total)
T2698 001:279 JLINK_WriteReg(R6, 0x00000000)  returns 0x00 (0000ms, 0865ms total)
T2698 001:279 JLINK_WriteReg(R7, 0x00000000)  returns 0x00 (0000ms, 0865ms total)
T2698 001:279 JLINK_WriteReg(R8, 0x00000000)  returns 0x00 (0000ms, 0865ms total)
T2698 001:279 JLINK_WriteReg(R9, 0x2000016C)  returns 0x00 (0001ms, 0866ms total)
T2698 001:280 JLINK_WriteReg(R10, 0x00000000)  returns 0x00 (0000ms, 0866ms total)
T2698 001:280 JLINK_WriteReg(R11, 0x00000000)  returns 0x00 (0000ms, 0866ms total)
T2698 001:280 JLINK_WriteReg(R12, 0x00000000)  returns 0x00 (0000ms, 0866ms total)
T2698 001:280 JLINK_WriteReg(R13 (SP), 0x20001000)  returns 0x00 (0001ms, 0867ms total)
T2698 001:281 JLINK_WriteReg(R14, 0x20000001)  returns 0x00 (0000ms, 0867ms total)
T2698 001:281 JLINK_WriteReg(R15 (PC), 0x200000FA)  returns 0x00 (0000ms, 0867ms total)
T2698 001:281 JLINK_WriteReg(XPSR, 0x01000000)  returns 0x00 (0000ms, 0867ms total)
T2698 001:281 JLINK_WriteReg(MSP, 0x20001000)  returns 0x00 (0001ms, 0868ms total)
T2698 001:282 JLINK_WriteReg(PSP, 0x20001000)  returns 0x00 (0000ms, 0868ms total)
T2698 001:282 JLINK_WriteReg(CFBP, 0x00000000)  returns 0x00 (0000ms, 0868ms total)
T2698 001:282 JLINK_SetBPEx(Addr = 0x20000000, Type = 0xFFFFFFF2)  returns 0x00000008 (0000ms, 0868ms total)
T2698 001:282 JLINK_Go() -- CPU_ReadMem(4 bytes @ 0xE0001000) -- CPU_WriteMem(4 bytes @ 0xE0001000) (0004ms, 0872ms total)
T2698 001:286 JLINK_IsHalted()  returns FALSE (0001ms, 0873ms total)
T2698 001:292 JLINK_IsHalted()  returns FALSE (0001ms, 0873ms total)
T2698 001:294 JLINK_IsHalted()  returns FALSE (0000ms, 0872ms total)
T2698 001:296 JLINK_IsHalted()  returns FALSE (0000ms, 0872ms total)
T2698 001:298 JLINK_IsHalted()  returns FALSE (0001ms, 0873ms total)
T2698 001:301 JLINK_IsHalted()  returns FALSE (0001ms, 0873ms total)
T2698 001:304 JLINK_IsHalted()  returns FALSE (0000ms, 0873ms total)
T2698 001:306 JLINK_IsHalted()  returns FALSE (0001ms, 0874ms total)
T2698 001:309 JLINK_IsHalted()  returns FALSE (0000ms, 0873ms total)
T2698 001:312 JLINK_IsHalted()  returns FALSE (0000ms, 0873ms total)
T2698 001:314 JLINK_IsHalted()  returns FALSE (0001ms, 0874ms total)
T2698 001:317 JLINK_IsHalted() -- CPU_ReadMem(2 bytes @ 0x20000000)  returns TRUE (0003ms, 0876ms total)
T2698 001:320 JLINK_ReadReg(R15 (PC))  returns 0x20000000 (0000ms, 0873ms total)
T2698 001:320 JLINK_ClrBPEx(BPHandle = 0x00000008)  returns 0x00 (0000ms, 0873ms total)
T2698 001:321 JLINK_ReadReg(R0)  returns 0x00000000 (0000ms, 0873ms total)
T2698 001:322 JLINK_WriteMem(0x20000170, 0x0290 Bytes, ...) - Data: 21 68 CE 68 06 43 CE 60 01 26 A1 6B 36 07 B1 42 ... -- CPU_WriteMem(656 bytes @ 0x20000170)  returns 0x290 (0002ms, 0875ms total)
T2698 001:324 JLINK_WriteMem(0x20000400, 0x0170 Bytes, ...) - Data: ED 06 A8 42 01 D1 00 25 14 E0 21 4D A8 42 01 D1 ... -- CPU_WriteMem(368 bytes @ 0x20000400)  returns 0x170 (0002ms, 0877ms total)
T2698 001:326 JLINK_WriteReg(R0, 0x08000400)  returns 0x00 (0001ms, 0878ms total)
T2698 001:327 JLINK_WriteReg(R1, 0x00000400)  returns 0x00 (0000ms, 0878ms total)
T2698 001:327 JLINK_WriteReg(R2, 0x20000170)  returns 0x00 (0000ms, 0878ms total)
T2698 001:327 JLINK_WriteReg(R3, 0x00000000)  returns 0x00 (0001ms, 0879ms total)
T2698 001:328 JLINK_WriteReg(R4, 0x00000000)  returns 0x00 (0000ms, 0879ms total)
T2698 001:328 JLINK_WriteReg(R5, 0x00000000)  returns 0x00 (0000ms, 0879ms total)
T2698 001:328 JLINK_WriteReg(R6, 0x00000000)  returns 0x00 (0000ms, 0879ms total)
T2698 001:328 JLINK_WriteReg(R7, 0x00000000)  returns 0x00 (0001ms, 0880ms total)
T2698 001:329 JLINK_WriteReg(R8, 0x00000000)  returns 0x00 (0000ms, 0880ms total)
T2698 001:329 JLINK_WriteReg(R9, 0x2000016C)  returns 0x00 (0000ms, 0880ms total)
T2698 001:329 JLINK_WriteReg(R10, 0x00000000)  returns 0x00 (0000ms, 0880ms total)
T2698 001:329 JLINK_WriteReg(R11, 0x00000000)  returns 0x00 (0001ms, 0881ms total)
T2698 001:330 JLINK_WriteReg(R12, 0x00000000)  returns 0x00 (0000ms, 0881ms total)
T2698 001:330 JLINK_WriteReg(R13 (SP), 0x20001000)  returns 0x00 (0000ms, 0881ms total)
T2698 001:330 JLINK_WriteReg(R14, 0x20000001)  returns 0x00 (0000ms, 0881ms total)
T2698 001:330 JLINK_WriteReg(R15 (PC), 0x200000FA)  returns 0x00 (0001ms, 0882ms total)
T2698 001:331 JLINK_WriteReg(XPSR, 0x01000000)  returns 0x00 (0000ms, 0882ms total)
T2698 001:331 JLINK_WriteReg(MSP, 0x20001000)  returns 0x00 (0000ms, 0882ms total)
T2698 001:331 JLINK_WriteReg(PSP, 0x20001000)  returns 0x00 (0000ms, 0882ms total)
T2698 001:332 JLINK_WriteReg(CFBP, 0x00000000)  returns 0x00 (0000ms, 0883ms total)
T2698 001:332 JLINK_SetBPEx(Addr = 0x20000000, Type = 0xFFFFFFF2)  returns 0x00000009 (0000ms, 0883ms total)
T2698 001:332 JLINK_Go() -- CPU_ReadMem(4 bytes @ 0xE0001000) -- CPU_WriteMem(4 bytes @ 0xE0001000) (0003ms, 0886ms total)
T2698 001:335 JLINK_IsHalted()  returns FALSE (0000ms, 0886ms total)
T2698 001:338 JLINK_IsHalted()  returns FALSE (0000ms, 0886ms total)
T2698 001:340 JLINK_IsHalted()  returns FALSE (0000ms, 0886ms total)
T2698 001:344 JLINK_IsHalted()  returns FALSE (0001ms, 0887ms total)
T2698 001:346 JLINK_IsHalted()  returns FALSE (0000ms, 0886ms total)
T2698 001:348 JLINK_IsHalted()  returns FALSE (0000ms, 0886ms total)
T2698 001:350 JLINK_IsHalted()  returns FALSE (0000ms, 0886ms total)
T2698 001:353 JLINK_IsHalted()  returns FALSE (0000ms, 0886ms total)
T2698 001:355 JLINK_IsHalted()  returns FALSE (0000ms, 0886ms total)
T2698 001:357 JLINK_IsHalted()  returns FALSE (0001ms, 0887ms total)
T2698 001:360 JLINK_IsHalted()  returns FALSE (0001ms, 0887ms total)
T2698 001:363 JLINK_IsHalted()  returns FALSE (0001ms, 0887ms total)
T2698 001:366 JLINK_IsHalted() -- CPU_ReadMem(2 bytes @ 0x20000000)  returns TRUE (0003ms, 0889ms total)
T2698 001:369 JLINK_ReadReg(R15 (PC))  returns 0x20000000 (0000ms, 0886ms total)
T2698 001:369 JLINK_ClrBPEx(BPHandle = 0x00000009)  returns 0x00 (0000ms, 0886ms total)
T2698 001:369 JLINK_ReadReg(R0)  returns 0x00000000 (0001ms, 0887ms total)
T2698 001:371 JLINK_WriteMem(0x20000170, 0x0290 Bytes, ...) - Data: C9 03 8A 43 82 60 A0 68 00 28 07 D0 E2 68 01 2A ... -- CPU_WriteMem(656 bytes @ 0x20000170)  returns 0x290 (0003ms, 0890ms total)
T2698 001:374 JLINK_WriteMem(0x20000400, 0x0170 Bytes, ...) - Data: 2E 5B 76 06 04 D5 2E 5B 0E 40 2B 49 0E 43 2E 53 ... -- CPU_WriteMem(368 bytes @ 0x20000400)  returns 0x170 (0002ms, 0892ms total)
T2698 001:376 JLINK_WriteReg(R0, 0x08000800)  returns 0x00 (0000ms, 0892ms total)
T2698 001:376 JLINK_WriteReg(R1, 0x00000400)  returns 0x00 (0001ms, 0893ms total)
T2698 001:377 JLINK_WriteReg(R2, 0x20000170)  returns 0x00 (0000ms, 0893ms total)
T2698 001:377 JLINK_WriteReg(R3, 0x00000000)  returns 0x00 (0000ms, 0893ms total)
T2698 001:377 JLINK_WriteReg(R4, 0x00000000)  returns 0x00 (0000ms, 0893ms total)
T2698 001:378 JLINK_WriteReg(R5, 0x00000000)  returns 0x00 (0000ms, 0894ms total)
T2698 001:378 JLINK_WriteReg(R6, 0x00000000)  returns 0x00 (0000ms, 0894ms total)
T2698 001:378 JLINK_WriteReg(R7, 0x00000000)  returns 0x00 (0000ms, 0894ms total)
T2698 001:378 JLINK_WriteReg(R8, 0x00000000)  returns 0x00 (0001ms, 0895ms total)
T2698 001:379 JLINK_WriteReg(R9, 0x2000016C)  returns 0x00 (0000ms, 0895ms total)
T2698 001:379 JLINK_WriteReg(R10, 0x00000000)  returns 0x00 (0000ms, 0895ms total)
T2698 001:379 JLINK_WriteReg(R11, 0x00000000)  returns 0x00 (0000ms, 0895ms total)
T2698 001:379 JLINK_WriteReg(R12, 0x00000000)  returns 0x00 (0001ms, 0896ms total)
T2698 001:380 JLINK_WriteReg(R13 (SP), 0x20001000)  returns 0x00 (0000ms, 0896ms total)
T2698 001:380 JLINK_WriteReg(R14, 0x20000001)  returns 0x00 (0000ms, 0896ms total)
T2698 001:380 JLINK_WriteReg(R15 (PC), 0x200000FA)  returns 0x00 (0000ms, 0896ms total)
T2698 001:381 JLINK_WriteReg(XPSR, 0x01000000)  returns 0x00 (0000ms, 0897ms total)
T2698 001:381 JLINK_WriteReg(MSP, 0x20001000)  returns 0x00 (0000ms, 0897ms total)
T2698 001:381 JLINK_WriteReg(PSP, 0x20001000)  returns 0x00 (0000ms, 0897ms total)
T2698 001:381 JLINK_WriteReg(CFBP, 0x00000000)  returns 0x00 (0001ms, 0898ms total)
T2698 001:382 JLINK_SetBPEx(Addr = 0x20000000, Type = 0xFFFFFFF2)  returns 0x0000000A (0000ms, 0898ms total)
T2698 001:382 JLINK_Go() -- CPU_ReadMem(4 bytes @ 0xE0001000) -- CPU_WriteMem(4 bytes @ 0xE0001000) (0003ms, 0901ms total)
T2698 001:385 JLINK_IsHalted()  returns FALSE (0001ms, 0902ms total)
T2698 001:390 JLINK_IsHalted()  returns FALSE (0001ms, 0902ms total)
T2698 001:393 JLINK_IsHalted()  returns FALSE (0001ms, 0902ms total)
T2698 001:396 JLINK_IsHalted()  returns FALSE (0001ms, 0902ms total)
T2698 001:399 JLINK_IsHalted()  returns FALSE (0001ms, 0902ms total)
T2698 001:401 JLINK_IsHalted()  returns FALSE (0001ms, 0902ms total)
T2698 001:404 JLINK_IsHalted()  returns FALSE (0001ms, 0903ms total)
T2698 001:407 JLINK_IsHalted()  returns FALSE (0001ms, 0903ms total)
T2698 001:410 JLINK_IsHalted()  returns FALSE (0000ms, 0902ms total)
T2698 001:412 JLINK_IsHalted()  returns FALSE (0000ms, 0902ms total)
T2698 001:414 JLINK_IsHalted()  returns FALSE (0000ms, 0902ms total)
T2698 001:416 JLINK_IsHalted() -- CPU_ReadMem(2 bytes @ 0x20000000)  returns TRUE (0003ms, 0905ms total)
T2698 001:419 JLINK_ReadReg(R15 (PC))  returns 0x20000000 (0000ms, 0902ms total)
T2698 001:419 JLINK_ClrBPEx(BPHandle = 0x0000000A)  returns 0x00 (0000ms, 0902ms total)
T2698 001:419 JLINK_ReadReg(R0)  returns 0x00000000 (0001ms, 0903ms total)
T2698 001:421 JLINK_WriteMem(0x20000170, 0x0290 Bytes, ...) - Data: 80 C0 00 00 49 06 49 0E 1C 22 51 43 08 18 FF 30 ... -- CPU_WriteMem(656 bytes @ 0x20000170)  returns 0x290 (0003ms, 0906ms total)
T2698 001:424 JLINK_WriteMem(0x20000400, 0x0170 Bytes, ...) - Data: 22 78 03 68 95 00 5A 5B 0D 4E F1 3E 32 40 01 26 ... -- CPU_WriteMem(368 bytes @ 0x20000400)  returns 0x170 (0002ms, 0908ms total)
T2698 001:427 JLINK_WriteReg(R0, 0x08000C00)  returns 0x00 (0000ms, 0909ms total)
T2698 001:427 JLINK_WriteReg(R1, 0x00000400)  returns 0x00 (0000ms, 0909ms total)
T2698 001:427 JLINK_WriteReg(R2, 0x20000170)  returns 0x00 (0000ms, 0909ms total)
T2698 001:428 JLINK_WriteReg(R3, 0x00000000)  returns 0x00 (0000ms, 0910ms total)
T2698 001:428 JLINK_WriteReg(R4, 0x00000000)  returns 0x00 (0000ms, 0910ms total)
T2698 001:428 JLINK_WriteReg(R5, 0x00000000)  returns 0x00 (0000ms, 0910ms total)
T2698 001:428 JLINK_WriteReg(R6, 0x00000000)  returns 0x00 (0001ms, 0911ms total)
T2698 001:429 JLINK_WriteReg(R7, 0x00000000)  returns 0x00 (0000ms, 0911ms total)
T2698 001:429 JLINK_WriteReg(R8, 0x00000000)  returns 0x00 (0000ms, 0911ms total)
T2698 001:429 JLINK_WriteReg(R9, 0x2000016C)  returns 0x00 (0000ms, 0911ms total)
T2698 001:429 JLINK_WriteReg(R10, 0x00000000)  returns 0x00 (0001ms, 0912ms total)
T2698 001:430 JLINK_WriteReg(R11, 0x00000000)  returns 0x00 (0000ms, 0912ms total)
T2698 001:430 JLINK_WriteReg(R12, 0x00000000)  returns 0x00 (0000ms, 0912ms total)
T2698 001:430 JLINK_WriteReg(R13 (SP), 0x20001000)  returns 0x00 (0000ms, 0912ms total)
T2698 001:430 JLINK_WriteReg(R14, 0x20000001)  returns 0x00 (0001ms, 0913ms total)
T2698 001:431 JLINK_WriteReg(R15 (PC), 0x200000FA)  returns 0x00 (0000ms, 0913ms total)
T2698 001:431 JLINK_WriteReg(XPSR, 0x01000000)  returns 0x00 (0000ms, 0913ms total)
T2698 001:431 JLINK_WriteReg(MSP, 0x20001000)  returns 0x00 (0000ms, 0913ms total)
T2698 001:431 JLINK_WriteReg(PSP, 0x20001000)  returns 0x00 (0001ms, 0914ms total)
T2698 001:432 JLINK_WriteReg(CFBP, 0x00000000)  returns 0x00 (0000ms, 0914ms total)
T2698 001:432 JLINK_SetBPEx(Addr = 0x20000000, Type = 0xFFFFFFF2)  returns 0x0000000B (0000ms, 0914ms total)
T2698 001:432 JLINK_Go() -- CPU_ReadMem(4 bytes @ 0xE0001000) -- CPU_WriteMem(4 bytes @ 0xE0001000) (0003ms, 0917ms total)
T2698 001:435 JLINK_IsHalted()  returns FALSE (0001ms, 0918ms total)
T2698 001:439 JLINK_IsHalted()  returns FALSE (0000ms, 0917ms total)
T2698 001:441 JLINK_IsHalted()  returns FALSE (0000ms, 0917ms total)
T2698 001:443 JLINK_IsHalted()  returns FALSE (0000ms, 0917ms total)
T2698 001:445 JLINK_IsHalted()  returns FALSE (0000ms, 0917ms total)
T2698 001:447 JLINK_IsHalted()  returns FALSE (0001ms, 0918ms total)
T2698 001:451 JLINK_IsHalted()  returns FALSE (0001ms, 0918ms total)
T2698 001:454 JLINK_IsHalted()  returns FALSE (0000ms, 0917ms total)
T2698 001:456 JLINK_IsHalted()  returns FALSE (0001ms, 0918ms total)
T2698 001:459 JLINK_IsHalted()  returns FALSE (0000ms, 0917ms total)
T2698 001:461 JLINK_IsHalted()  returns FALSE (0000ms, 0917ms total)
T2698 001:463 JLINK_IsHalted()  returns FALSE (0000ms, 0917ms total)
T2698 001:465 JLINK_IsHalted() -- CPU_ReadMem(2 bytes @ 0x20000000)  returns TRUE (0003ms, 0920ms total)
T2698 001:468 JLINK_ReadReg(R15 (PC))  returns 0x20000000 (0000ms, 0917ms total)
T2698 001:468 JLINK_ClrBPEx(BPHandle = 0x0000000B)  returns 0x00 (0000ms, 0917ms total)
T2698 001:468 JLINK_ReadReg(R0)  returns 0x00000000 (0001ms, 0918ms total)
T2698 001:469 JLINK_WriteMem(0x20000170, 0x0290 Bytes, ...) - Data: 04 68 60 5A 0D 4E 30 40 68 40 18 43 60 52 10 E0 ... -- CPU_WriteMem(656 bytes @ 0x20000170)  returns 0x290 (0003ms, 0921ms total)
T2698 001:472 JLINK_WriteMem(0x20000400, 0x0170 Bytes, ...) - Data: 20 46 00 F0 D5 F8 20 68 40 30 81 88 89 05 07 D5 ... -- CPU_WriteMem(368 bytes @ 0x20000400)  returns 0x170 (0002ms, 0923ms total)
T2698 001:474 JLINK_WriteReg(R0, 0x08001000)  returns 0x00 (0000ms, 0923ms total)
T2698 001:474 JLINK_WriteReg(R1, 0x00000400)  returns 0x00 (0001ms, 0924ms total)
T2698 001:475 JLINK_WriteReg(R2, 0x20000170)  returns 0x00 (0000ms, 0924ms total)
T2698 001:475 JLINK_WriteReg(R3, 0x00000000)  returns 0x00 (0000ms, 0924ms total)
T2698 001:475 JLINK_WriteReg(R4, 0x00000000)  returns 0x00 (0000ms, 0924ms total)
T2698 001:476 JLINK_WriteReg(R5, 0x00000000)  returns 0x00 (0000ms, 0925ms total)
T2698 001:476 JLINK_WriteReg(R6, 0x00000000)  returns 0x00 (0000ms, 0925ms total)
T2698 001:476 JLINK_WriteReg(R7, 0x00000000)  returns 0x00 (0000ms, 0925ms total)
T2698 001:476 JLINK_WriteReg(R8, 0x00000000)  returns 0x00 (0000ms, 0925ms total)
T2698 001:476 JLINK_WriteReg(R9, 0x2000016C)  returns 0x00 (0001ms, 0926ms total)
T2698 001:477 JLINK_WriteReg(R10, 0x00000000)  returns 0x00 (0000ms, 0926ms total)
T2698 001:477 JLINK_WriteReg(R11, 0x00000000)  returns 0x00 (0000ms, 0926ms total)
T2698 001:477 JLINK_WriteReg(R12, 0x00000000)  returns 0x00 (0000ms, 0926ms total)
T2698 001:477 JLINK_WriteReg(R13 (SP), 0x20001000)  returns 0x00 (0001ms, 0927ms total)
T2698 001:478 JLINK_WriteReg(R14, 0x20000001)  returns 0x00 (0000ms, 0927ms total)
T2698 001:478 JLINK_WriteReg(R15 (PC), 0x200000FA)  returns 0x00 (0000ms, 0927ms total)
T2698 001:478 JLINK_WriteReg(XPSR, 0x01000000)  returns 0x00 (0000ms, 0927ms total)
T2698 001:478 JLINK_WriteReg(MSP, 0x20001000)  returns 0x00 (0001ms, 0928ms total)
T2698 001:479 JLINK_WriteReg(PSP, 0x20001000)  returns 0x00 (0000ms, 0928ms total)
T2698 001:479 JLINK_WriteReg(CFBP, 0x00000000)  returns 0x00 (0000ms, 0928ms total)
T2698 001:479 JLINK_SetBPEx(Addr = 0x20000000, Type = 0xFFFFFFF2)  returns 0x0000000C (0000ms, 0928ms total)
T2698 001:479 JLINK_Go() -- CPU_ReadMem(4 bytes @ 0xE0001000) -- CPU_WriteMem(4 bytes @ 0xE0001000) (0003ms, 0931ms total)
T2698 001:482 JLINK_IsHalted()  returns FALSE (0001ms, 0932ms total)
T2698 001:485 JLINK_IsHalted()  returns FALSE (0000ms, 0931ms total)
T2698 001:487 JLINK_IsHalted()  returns FALSE (0000ms, 0931ms total)
T2698 001:489 JLINK_IsHalted()  returns FALSE (0001ms, 0932ms total)
T2698 001:492 JLINK_IsHalted()  returns FALSE (0001ms, 0932ms total)
T2698 001:494 JLINK_IsHalted()  returns FALSE (0001ms, 0932ms total)
T2698 001:497 JLINK_IsHalted()  returns FALSE (0000ms, 0931ms total)
T2698 001:499 JLINK_IsHalted()  returns FALSE (0000ms, 0931ms total)
T2698 001:501 JLINK_IsHalted()  returns FALSE (0001ms, 0932ms total)
T2698 001:504 JLINK_IsHalted()  returns FALSE (0000ms, 0931ms total)
T2698 001:507 JLINK_IsHalted()  returns FALSE (0000ms, 0931ms total)
T2698 001:509 JLINK_IsHalted()  returns FALSE (0001ms, 0932ms total)
T2698 001:512 JLINK_IsHalted() -- CPU_ReadMem(2 bytes @ 0x20000000)  returns TRUE (0003ms, 0934ms total)
T2698 001:515 JLINK_ReadReg(R15 (PC))  returns 0x20000000 (0000ms, 0931ms total)
T2698 001:515 JLINK_ClrBPEx(BPHandle = 0x0000000C)  returns 0x00 (0000ms, 0931ms total)
T2698 001:515 JLINK_ReadReg(R0)  returns 0x00000000 (0001ms, 0932ms total)
T2698 001:517 JLINK_WriteMem(0x20000170, 0x0290 Bytes, ...) - Data: 20 30 01 71 00 20 10 72 70 47 02 20 70 47 00 68 ... -- CPU_WriteMem(656 bytes @ 0x20000170)  returns 0x290 (0002ms, 0934ms total)
T2698 001:520 JLINK_WriteMem(0x20000400, 0x0170 Bytes, ...) - Data: 4B E0 68 68 01 28 13 D0 02 28 1D D0 03 28 27 D0 ... -- CPU_WriteMem(368 bytes @ 0x20000400)  returns 0x170 (0001ms, 0936ms total)
T2698 001:521 JLINK_WriteReg(R0, 0x08001400)  returns 0x00 (0001ms, 0937ms total)
T2698 001:522 JLINK_WriteReg(R1, 0x00000400)  returns 0x00 (0000ms, 0937ms total)
T2698 001:522 JLINK_WriteReg(R2, 0x20000170)  returns 0x00 (0000ms, 0937ms total)
T2698 001:522 JLINK_WriteReg(R3, 0x00000000)  returns 0x00 (0000ms, 0937ms total)
T2698 001:522 JLINK_WriteReg(R4, 0x00000000)  returns 0x00 (0001ms, 0938ms total)
T2698 001:523 JLINK_WriteReg(R5, 0x00000000)  returns 0x00 (0000ms, 0938ms total)
T2698 001:523 JLINK_WriteReg(R6, 0x00000000)  returns 0x00 (0000ms, 0938ms total)
T2698 001:523 JLINK_WriteReg(R7, 0x00000000)  returns 0x00 (0000ms, 0938ms total)
T2698 001:524 JLINK_WriteReg(R8, 0x00000000)  returns 0x00 (0000ms, 0939ms total)
T2698 001:524 JLINK_WriteReg(R9, 0x2000016C)  returns 0x00 (0000ms, 0939ms total)
T2698 001:524 JLINK_WriteReg(R10, 0x00000000)  returns 0x00 (0000ms, 0939ms total)
T2698 001:524 JLINK_WriteReg(R11, 0x00000000)  returns 0x00 (0001ms, 0940ms total)
T2698 001:525 JLINK_WriteReg(R12, 0x00000000)  returns 0x00 (0000ms, 0940ms total)
T2698 001:525 JLINK_WriteReg(R13 (SP), 0x20001000)  returns 0x00 (0000ms, 0940ms total)
T2698 001:525 JLINK_WriteReg(R14, 0x20000001)  returns 0x00 (0000ms, 0940ms total)
T2698 001:525 JLINK_WriteReg(R15 (PC), 0x200000FA)  returns 0x00 (0001ms, 0941ms total)
T2698 001:526 JLINK_WriteReg(XPSR, 0x01000000)  returns 0x00 (0000ms, 0941ms total)
T2698 001:526 JLINK_WriteReg(MSP, 0x20001000)  returns 0x00 (0000ms, 0941ms total)
T2698 001:526 JLINK_WriteReg(PSP, 0x20001000)  returns 0x00 (0000ms, 0941ms total)
T2698 001:526 JLINK_WriteReg(CFBP, 0x00000000)  returns 0x00 (0001ms, 0942ms total)
T2698 001:527 JLINK_SetBPEx(Addr = 0x20000000, Type = 0xFFFFFFF2)  returns 0x0000000D (0000ms, 0942ms total)
T2698 001:527 JLINK_Go() -- CPU_ReadMem(4 bytes @ 0xE0001000) -- CPU_WriteMem(4 bytes @ 0xE0001000) (0003ms, 0945ms total)
T2698 001:530 JLINK_IsHalted()  returns FALSE (0000ms, 0945ms total)
T2698 001:532 JLINK_IsHalted()  returns FALSE (0000ms, 0945ms total)
T2698 001:534 JLINK_IsHalted()  returns FALSE (0000ms, 0945ms total)
T2698 001:536 JLINK_IsHalted()  returns FALSE (0000ms, 0946ms total)
T2698 001:538 JLINK_IsHalted()  returns FALSE (0001ms, 0947ms total)
T2698 001:541 JLINK_IsHalted()  returns FALSE (0000ms, 0946ms total)
T2698 001:545 JLINK_IsHalted()  returns FALSE (0000ms, 0946ms total)
T2698 001:547 JLINK_IsHalted()  returns FALSE (0000ms, 0946ms total)
T2698 001:549 JLINK_IsHalted()  returns FALSE (0000ms, 0946ms total)
T2698 001:551 JLINK_IsHalted()  returns FALSE (0000ms, 0946ms total)
T2698 001:553 JLINK_IsHalted()  returns FALSE (0000ms, 0946ms total)
T2698 001:555 JLINK_IsHalted()  returns FALSE (0000ms, 0946ms total)
T2698 001:557 JLINK_IsHalted()  returns FALSE (0000ms, 0946ms total)
T2698 001:559 JLINK_IsHalted() -- CPU_ReadMem(2 bytes @ 0x20000000)  returns TRUE (0003ms, 0949ms total)
T2698 001:562 JLINK_ReadReg(R15 (PC))  returns 0x20000000 (0000ms, 0946ms total)
T2698 001:562 JLINK_ClrBPEx(BPHandle = 0x0000000D)  returns 0x00 (0000ms, 0946ms total)
T2698 001:562 JLINK_ReadReg(R0)  returns 0x00000000 (0000ms, 0946ms total)
T2698 001:563 JLINK_WriteMem(0x20000170, 0x0290 Bytes, ...) - Data: 06 07 08 09 0A 0B 0C 0D 0E 0F 10 10 01 02 03 04 ... -- CPU_WriteMem(656 bytes @ 0x20000170)  returns 0x290 (0003ms, 0949ms total)
T2698 001:566 JLINK_WriteMem(0x20000400, 0x0170 Bytes, ...) - Data: 41 1A 61 48 81 42 68 D8 28 6A 80 07 F5 D4 20 78 ... -- CPU_WriteMem(368 bytes @ 0x20000400)  returns 0x170 (0002ms, 0951ms total)
T2698 001:568 JLINK_WriteReg(R0, 0x08001800)  returns 0x00 (0001ms, 0952ms total)
T2698 001:569 JLINK_WriteReg(R1, 0x00000400)  returns 0x00 (0000ms, 0952ms total)
T2698 001:569 JLINK_WriteReg(R2, 0x20000170)  returns 0x00 (0000ms, 0952ms total)
T2698 001:569 JLINK_WriteReg(R3, 0x00000000)  returns 0x00 (0000ms, 0952ms total)
T2698 001:569 JLINK_WriteReg(R4, 0x00000000)  returns 0x00 (0001ms, 0953ms total)
T2698 001:570 JLINK_WriteReg(R5, 0x00000000)  returns 0x00 (0000ms, 0953ms total)
T2698 001:570 JLINK_WriteReg(R6, 0x00000000)  returns 0x00 (0000ms, 0953ms total)
T2698 001:570 JLINK_WriteReg(R7, 0x00000000)  returns 0x00 (0000ms, 0953ms total)
T2698 001:570 JLINK_WriteReg(R8, 0x00000000)  returns 0x00 (0001ms, 0954ms total)
T2698 001:571 JLINK_WriteReg(R9, 0x2000016C)  returns 0x00 (0000ms, 0954ms total)
T2698 001:571 JLINK_WriteReg(R10, 0x00000000)  returns 0x00 (0000ms, 0954ms total)
T2698 001:571 JLINK_WriteReg(R11, 0x00000000)  returns 0x00 (0000ms, 0954ms total)
T2698 001:571 JLINK_WriteReg(R12, 0x00000000)  returns 0x00 (0001ms, 0955ms total)
T2698 001:572 JLINK_WriteReg(R13 (SP), 0x20001000)  returns 0x00 (0000ms, 0955ms total)
T2698 001:572 JLINK_WriteReg(R14, 0x20000001)  returns 0x00 (0000ms, 0955ms total)
T2698 001:572 JLINK_WriteReg(R15 (PC), 0x200000FA)  returns 0x00 (0000ms, 0955ms total)
T2698 001:572 JLINK_WriteReg(XPSR, 0x01000000)  returns 0x00 (0001ms, 0956ms total)
T2698 001:573 JLINK_WriteReg(MSP, 0x20001000)  returns 0x00 (0000ms, 0956ms total)
T2698 001:573 JLINK_WriteReg(PSP, 0x20001000)  returns 0x00 (0000ms, 0956ms total)
T2698 001:573 JLINK_WriteReg(CFBP, 0x00000000)  returns 0x00 (0001ms, 0957ms total)
T2698 001:574 JLINK_SetBPEx(Addr = 0x20000000, Type = 0xFFFFFFF2)  returns 0x0000000E (0000ms, 0957ms total)
T2698 001:574 JLINK_Go() -- CPU_ReadMem(4 bytes @ 0xE0001000) -- CPU_WriteMem(4 bytes @ 0xE0001000) (0003ms, 0960ms total)
T2698 001:577 JLINK_IsHalted()  returns FALSE (0000ms, 0960ms total)
T2698 001:581 JLINK_IsHalted()  returns FALSE (0000ms, 0960ms total)
T2698 001:583 JLINK_IsHalted()  returns FALSE (0000ms, 0960ms total)
T2698 001:585 JLINK_IsHalted()  returns FALSE (0000ms, 0960ms total)
T2698 001:587 JLINK_IsHalted()  returns FALSE (0000ms, 0960ms total)
T2698 001:589 JLINK_IsHalted()  returns FALSE (0000ms, 0960ms total)
T2698 001:591 JLINK_IsHalted()  returns FALSE (0000ms, 0960ms total)
T2698 001:593 JLINK_IsHalted()  returns FALSE (0000ms, 0960ms total)
T2698 001:595 JLINK_IsHalted()  returns FALSE (0000ms, 0960ms total)
T2698 001:597 JLINK_IsHalted()  returns FALSE (0000ms, 0960ms total)
T2698 001:599 JLINK_IsHalted()  returns FALSE (0000ms, 0960ms total)
T2698 001:601 JLINK_IsHalted()  returns FALSE (0000ms, 0960ms total)
T2698 001:603 JLINK_IsHalted()  returns FALSE (0001ms, 0961ms total)
T2698 001:606 JLINK_IsHalted() -- CPU_ReadMem(2 bytes @ 0x20000000)  returns TRUE (0003ms, 0963ms total)
T2698 001:609 JLINK_ReadReg(R15 (PC))  returns 0x20000000 (0000ms, 0960ms total)
T2698 001:609 JLINK_ClrBPEx(BPHandle = 0x0000000E)  returns 0x00 (0001ms, 0961ms total)
T2698 001:610 JLINK_ReadReg(R0)  returns 0x00000000 (0000ms, 0961ms total)
T2698 001:611 JLINK_WriteMem(0x20000170, 0x0290 Bytes, ...) - Data: 00 1B 64 28 0F D8 28 68 80 01 F7 D5 10 E0 11 E0 ... -- CPU_WriteMem(656 bytes @ 0x20000170)  returns 0x290 (0003ms, 0964ms total)
